
T0838 000:026 SEGGER J-Link V6.00e Log File (0000ms, 0017ms total)
T0838 000:026 DLL Compiled: Aug  4 2016 09:37:38 (0000ms, 0017ms total)
T0838 000:026 Logging started @ 2016-09-09 16:09 (0000ms, 0017ms total)
T0838 000:026 JLINK_SetWarnOutHandler(...) (0000ms, 0017ms total)
T0838 000:026 JLINK_OpenEx(...)
Firmware: J-Link V9 compiled Aug  3 2016 18:50:44
Hardware: V9.40
S/N: 269400461
OEM: SEGGER-EDU
Feature(s): FlashBP, GDB  returns O.K. (0013ms, 0030ms total)
T0838 000:039 JLINK_SetErrorOutHandler(...) (0000ms, 0030ms total)
T0838 000:039 JLINK_ExecCommand("ProjectFile = "E:\Éè¼Æ\º£ëà±Ê¼£\Dolphin-Note\RT-Thread-STM32\Project\JLinkSettings.ini"", ...).   returns 0x00 (0093ms, 0123ms total)
T0838 000:136 JLINK_ExecCommand("Device = STM32F103RC", ...). Device "STM32F103RC" selected.  returns 0x00 (0003ms, 0126ms total)
T0838 000:139 JLINK_ExecCommand("DisableConnectionTimeout", ...).   returns 0x01 (0000ms, 0126ms total)
T0838 000:139 JLINK_GetHardwareVersion()  returns 0x16F30 (0000ms, 0126ms total)
T0838 000:139 JLINK_GetDLLVersion()  returns 60005 (0000ms, 0126ms total)
T0838 000:145 JLINK_GetDLLVersion()  returns 60005 (0000ms, 0126ms total)
T0838 000:146 JLINK_GetCompileDateTime() (0000ms, 0126ms total)
T0838 000:147 JLINK_GetFirmwareString(...) (0000ms, 0126ms total)
T0838 000:149 JLINK_GetHardwareVersion()  returns 0x16F30 (0000ms, 0126ms total)
T0838 000:159 JLINK_TIF_Select(JLINKARM_TIF_SWD)  returns 0x00 (0001ms, 0127ms total)
T0838 000:160 JLINK_SetSpeed(50000) (0000ms, 0127ms total)
T0838 000:160 JLINK_GetId() >0x108 TIF>Found SWD-DP with ID 0x1BA01477 >0x0D TIF> >0x28 TIF> >0x0D TIF> >0x28 TIF> >0x0D TIF> >0x28 TIF> >0x0D TIF> >0x28 TIF> >0x0D TIF> >0x21 TIF> >0x0D TIF> >0x28 TIF> >0x0D TIF> >0x28 TIF> >0x0D TIF> >0x28 TIF> >0x0D TIF> >0x21 TIF> >0x0D TIF> >0x21 TIF> >0x0D TIF> >0x28 TIF> >0x0D TIF> >0x21 TIF> >0x0D TIF> >0x21 TIF> >0x0D TIF> >0x28 TIF> >0x0D TIF> >0x21 TIF> >0x0D TIF> >0x21 TIF> >0x0D TIF> >0x28 TIF> >0x0D TIF> >0x21 TIF> >0x0D TIF> >0x21 TIF> >0x0D TIF>
 >0x28 TIF> >0x0D TIF> >0x21 TIF> >0x0D TIF> >0x21 TIF> >0x0D TIF> >0x28 TIF> >0x0D TIF> >0x21 TIF> >0x0D TIF> >0x21 TIF> >0x0D TIF> >0x28 TIF> >0x0D TIF> >0x21 TIF> >0x0D TIF> >0x21 TIF> >0x108 TIF>Found SWD-DP with ID 0x1BA01477 >0x0D TIF> >0x28 TIF> >0x0D TIF> >0x28 TIF> >0x0D TIF> >0x28 TIF> >0x0D TIF> >0x28 TIF> >0x0D TIF> >0x21 TIF> >0x0D TIF> >0x28 TIF> >0x0D TIF> >0x28 TIF> >0x0D TIF> >0x21 TIF> >0x0D TIF> >0x21 TIF> >0x0D TIF> >0x21 TIF>AP-IDR: 0x14770011, Type: AHB-AP >0x0D TIF> >0x28 TIF>
 >0x0D TIF> >0x28 TIF> >0x0D TIF> >0x28 TIF> >0x0D TIF> >0x21 TIF> >0x0D TIF> >0x21 TIF> >0x0D TIF> >0x28 TIF> >0x0D TIF> >0x21 TIF> >0x0D TIF> >0x21 TIF>Found Cortex-M3 r1p1, Little endian. -- CPU_ReadMem(4 bytes @ 0xE000EDF0) -- CPU_ReadMem(4 bytes @ 0xE0002000)FPUnit: 6 code (BP) slots and 2 literal slots -- CPU_ReadMem(4 bytes @ 0xE000EDFC) -- CPU_ReadMem(4 bytes @ 0xE0001000) -- CPU_WriteMem(4 bytes @ 0xE0001000) -- CPU_ReadMem(4 bytes @ 0xE000ED88) -- CPU_WriteMem(4 bytes @ 0xE000ED88)
 -- CPU_ReadMem(4 bytes @ 0xE000ED88) -- CPU_WriteMem(4 bytes @ 0xE000ED88)CoreSight components:ROMTbl 0 @ E00FF000 -- CPU_ReadMem(16 bytes @ 0xE00FF000) -- CPU_ReadMem(16 bytes @ 0xE000EFF0) -- CPU_ReadMem(16 bytes @ 0xE000EFE0)ROMTbl 0 [0]: FFF0F000, CID: B105E00D, PID: 001BB000 SCS -- CPU_ReadMem(16 bytes @ 0xE0001FF0) -- CPU_ReadMem(16 bytes @ 0xE0001FE0)ROMTbl 0 [1]: FFF02000, CID: B105E00D, PID: 001BB002 DWT -- CPU_ReadMem(16 bytes @ 0xE0002FF0) -- CPU_ReadMem(16 bytes @ 0xE0002FE0)
ROMTbl 0 [2]: FFF03000, CID: B105E00D, PID: 000BB003 FPB -- CPU_ReadMem(16 bytes @ 0xE0000FF0) -- CPU_ReadMem(16 bytes @ 0xE0000FE0)ROMTbl 0 [3]: FFF01000, CID: B105E00D, PID: 001BB001 ITM -- CPU_ReadMem(16 bytes @ 0xE00FF010) -- CPU_ReadMem(16 bytes @ 0xE0040FF0) -- CPU_ReadMem(16 bytes @ 0xE0040FE0)ROMTbl 0 [4]: FFF41000, CID: B105900D, PID: 001BB923 TPIU-Lite -- CPU_ReadMem(16 bytes @ 0xE0041FF0) -- CPU_ReadMem(16 bytes @ 0xE0041FE0)ROMTbl 0 [5]: FFF42000, CID: B105900D, PID: 101BB924 ETM-M3
 >0x0D TIF> >0x21 TIF>  returns 0x1BA01477 (0041ms, 0168ms total)
T0838 000:201 JLINK_GetDLLVersion()  returns 60005 (0000ms, 0168ms total)
T0838 000:201 JLINK_CORE_GetFound()  returns 0x30000FF (0000ms, 0168ms total)
T0838 000:201 JLINK_GetDebugInfo(0x100) -- Value=0xE00FF000  returns 0x00 (0000ms, 0168ms total)
T0838 000:203 JLINK_GetDebugInfo(0x100) -- Value=0xE00FF000  returns 0x00 (0000ms, 0168ms total)
T0838 000:203 JLINK_GetDebugInfo(0x101) -- Value=0xE0041000  returns 0x00 (0000ms, 0168ms total)
T0838 000:203 JLINK_GetDebugInfo(0x102) -- Value=0x00000000  returns 0x00 (0000ms, 0168ms total)
T0838 000:203 JLINK_GetDebugInfo(0x103) -- Value=0xE0040000  returns 0x00 (0000ms, 0168ms total)
T0838 000:203 JLINK_GetDebugInfo(0x104) -- Value=0xE0000000  returns 0x00 (0000ms, 0168ms total)
T0838 000:203 JLINK_GetDebugInfo(0x105) -- Value=0xE0001000  returns 0x00 (0000ms, 0168ms total)
T0838 000:203 JLINK_GetDebugInfo(0x106) -- Value=0xE0002000  returns 0x00 (0000ms, 0168ms total)
T0838 000:203 JLINK_GetDebugInfo(0x107) -- Value=0xE000E000  returns 0x00 (0000ms, 0168ms total)
T0838 000:203 JLINK_GetDebugInfo(0x10C) -- Value=0xE000EDF0  returns 0x00 (0000ms, 0168ms total)
T0838 000:203 JLINK_ReadMemU32(0xE000ED00, 0x0001 Items, ...) -- CPU is running -- CPU_ReadMem(4 bytes @ 0xE000ED00) - Data: 31 C2 1F 41  returns 0x01 (0001ms, 0169ms total)
T0838 000:204 JLINK_SetResetType(JLINKARM_RESET_TYPE_NORMAL)  returns JLINKARM_RESET_TYPE_NORMAL (0000ms, 0169ms total)
T0838 000:204 JLINK_Reset() -- CPU is running -- CPU_WriteMem(4 bytes @ 0xE000EDF0) -- CPU is running -- CPU_WriteMem(4 bytes @ 0xE000EDFC) >0x35 TIF> -- CPU is running -- CPU_WriteMem(4 bytes @ 0xE000ED0C) -- CPU is running -- CPU_ReadMem(4 bytes @ 0xE000EDF0) -- CPU is running -- CPU_ReadMem(4 bytes @ 0xE000EDF0) -- CPU is running -- CPU_WriteMem(4 bytes @ 0xE000EDF0) -- CPU is running -- CPU_WriteMem(4 bytes @ 0xE000EDFC) -- CPU is running -- CPU_ReadMem(4 bytes @ 0xE000EDF0)
 -- CPU_WriteMem(4 bytes @ 0xE0002000) -- CPU_ReadMem(4 bytes @ 0xE000EDFC) -- CPU_ReadMem(4 bytes @ 0xE0001000) (0012ms, 0181ms total)
T0838 000:216 JLINK_Halt()  returns 0x00 (0000ms, 0181ms total)
T0838 000:216 JLINK_IsHalted()  returns TRUE (0000ms, 0181ms total)
T0838 000:216 JLINK_ReadMemU32(0xE000EDF0, 0x0001 Items, ...) -- CPU_ReadMem(4 bytes @ 0xE000EDF0) - Data: 03 00 03 00  returns 0x01 (0001ms, 0182ms total)
T0838 000:217 JLINK_WriteU32(0xE000EDF0, 0xA05F0003) -- CPU_WriteMem(4 bytes @ 0xE000EDF0)  returns 0x00 (0000ms, 0182ms total)
T0838 000:217 JLINK_WriteU32(0xE000EDFC, 0x01000000) -- CPU_WriteMem(4 bytes @ 0xE000EDFC)  returns 0x00 (0000ms, 0182ms total)
T0838 000:224 JLINK_GetHWStatus(...)  returns 0x00 (0000ms, 0182ms total)
T0838 000:228 JLINK_GetNumBPUnits(Type = 0xFFFFFF00)  returns 0x06 (0000ms, 0182ms total)
T0838 000:228 JLINK_GetNumBPUnits(Type = 0xF0)  returns 0x2000 (0000ms, 0182ms total)
T0838 000:228 JLINK_GetNumWPUnits()  returns 0x04 (0000ms, 0182ms total)
T0838 000:234 JLINK_GetSpeed()  returns 0x2EE0 (0000ms, 0182ms total)
T0838 000:237 JLINK_ReadMemU32(0xE000E004, 0x0001 Items, ...) -- CPU_ReadMem(4 bytes @ 0xE000E004) - Data: 01 00 00 00  returns 0x01 (0001ms, 0183ms total)
T0838 000:238 JLINK_ReadMemU32(0xE000E004, 0x0001 Items, ...) -- CPU_ReadMem(4 bytes @ 0xE000E004) - Data: 01 00 00 00  returns 0x01 (0000ms, 0183ms total)
T0838 000:238 JLINK_WriteMem(0xE0001000, 0x001C Bytes, ...) - Data: 01 00 00 00 00 00 00 00 00 00 00 00 00 00 00 00 ... -- CPU_WriteMem(28 bytes @ 0xE0001000)  returns 0x1C (0001ms, 0184ms total)
T0838 000:239 JLINK_ReadMem (0xE0001000, 0x001C Bytes, ...) -- CPU_ReadMem(28 bytes @ 0xE0001000) - Data: 01 00 00 40 00 00 00 00 00 00 00 00 00 00 00 00 ...  returns 0x00 (0000ms, 0184ms total)
T0838 000:239 JLINK_Halt()  returns 0x00 (0000ms, 0184ms total)
T0838 000:239 JLINK_IsHalted()  returns TRUE (0000ms, 0184ms total)
T0838 000:241 JLINK_WriteMem(0x20000000, 0x0164 Bytes, ...) - Data: 00 BE 0A E0 0D 78 2D 06 68 40 08 24 40 00 00 D3 ... -- CPU_WriteMem(356 bytes @ 0x20000000)  returns 0x164 (0001ms, 0185ms total)
T0838 000:242 JLINK_WriteReg(R0, 0x08000000)  returns 0x00 (0000ms, 0185ms total)
T0838 000:242 JLINK_WriteReg(R1, 0x00B71B00)  returns 0x00 (0000ms, 0185ms total)
T0838 000:242 JLINK_WriteReg(R2, 0x00000001)  returns 0x00 (0000ms, 0185ms total)
T0838 000:242 JLINK_WriteReg(R3, 0x00000000)  returns 0x00 (0000ms, 0185ms total)
T0838 000:242 JLINK_WriteReg(R4, 0x00000000)  returns 0x00 (0000ms, 0185ms total)
T0838 000:242 JLINK_WriteReg(R5, 0x00000000)  returns 0x00 (0000ms, 0185ms total)
T0838 000:242 JLINK_WriteReg(R6, 0x00000000)  returns 0x00 (0000ms, 0185ms total)
T0838 000:242 JLINK_WriteReg(R7, 0x00000000)  returns 0x00 (0000ms, 0185ms total)
T0838 000:242 JLINK_WriteReg(R8, 0x00000000)  returns 0x00 (0000ms, 0185ms total)
T0838 000:242 JLINK_WriteReg(R9, 0x20000160)  returns 0x00 (0000ms, 0185ms total)
T0838 000:242 JLINK_WriteReg(R10, 0x00000000)  returns 0x00 (0000ms, 0185ms total)
T0838 000:242 JLINK_WriteReg(R11, 0x00000000)  returns 0x00 (0000ms, 0185ms total)
T0838 000:242 JLINK_WriteReg(R12, 0x00000000)  returns 0x00 (0000ms, 0185ms total)
T0838 000:242 JLINK_WriteReg(R13 (SP), 0x20001000)  returns 0x00 (0000ms, 0185ms total)
T0838 000:242 JLINK_WriteReg(R14, 0x20000001)  returns 0x00 (0000ms, 0185ms total)
T0838 000:242 JLINK_WriteReg(R15 (PC), 0x20000038)  returns 0x00 (0000ms, 0185ms total)
T0838 000:242 JLINK_WriteReg(XPSR, 0x01000000)  returns 0x00 (0000ms, 0185ms total)
T0838 000:242 JLINK_WriteReg(MSP, 0x20001000)  returns 0x00 (0000ms, 0185ms total)
T0838 000:242 JLINK_WriteReg(PSP, 0x20001000)  returns 0x00 (0000ms, 0185ms total)
T0838 000:243 JLINK_WriteReg(CFBP, 0x00000000)  returns 0x00 (0000ms, 0186ms total)
T0838 000:243 JLINK_SetBPEx(Addr = 0x20000000, Type = 0xFFFFFFF2) -- CPU_ReadMem(2 bytes @ 0x20000000)  returns 0x00000001 (0000ms, 0186ms total)
T0838 000:243 JLINK_Go() -- CPU_WriteMem(2 bytes @ 0x20000000) -- CPU_ReadMem(4 bytes @ 0xE0001000) -- CPU_WriteMem(4 bytes @ 0xE0002008) -- CPU_WriteMem(4 bytes @ 0xE000200C) -- CPU_WriteMem(4 bytes @ 0xE0002010) -- CPU_WriteMem(4 bytes @ 0xE0002014) -- CPU_WriteMem(4 bytes @ 0xE0002018) -- CPU_WriteMem(4 bytes @ 0xE000201C) -- CPU_WriteMem(4 bytes @ 0xE0001004) (0002ms, 0188ms total)
T0838 000:245 JLINK_IsHalted() -- CPU_ReadMem(2 bytes @ 0x20000000)  returns TRUE (0002ms, 0190ms total)
T0838 000:247 JLINK_ReadReg(R15 (PC))  returns 0x20000000 (0000ms, 0188ms total)
T0838 000:247 JLINK_ClrBPEx(BPHandle = 0x00000001)  returns 0x00 (0000ms, 0188ms total)
T0838 000:247 JLINK_ReadReg(R0)  returns 0x00000000 (0000ms, 0188ms total)
T0838 000:247 JLINK_WriteReg(R0, 0x08000000)  returns 0x00 (0000ms, 0188ms total)
T0838 000:247 JLINK_WriteReg(R1, 0x00B71B00)  returns 0x00 (0000ms, 0188ms total)
T0838 000:247 JLINK_WriteReg(R2, 0x00000001)  returns 0x00 (0000ms, 0188ms total)
T0838 000:247 JLINK_WriteReg(R3, 0x00000000)  returns 0x00 (0000ms, 0188ms total)
T0838 000:247 JLINK_WriteReg(R4, 0x00000000)  returns 0x00 (0000ms, 0188ms total)
T0838 000:247 JLINK_WriteReg(R5, 0x00000000)  returns 0x00 (0000ms, 0188ms total)
T0838 000:247 JLINK_WriteReg(R6, 0x00000000)  returns 0x00 (0000ms, 0188ms total)
T0838 000:247 JLINK_WriteReg(R7, 0x00000000)  returns 0x00 (0000ms, 0188ms total)
T0838 000:247 JLINK_WriteReg(R8, 0x00000000)  returns 0x00 (0000ms, 0188ms total)
T0838 000:247 JLINK_WriteReg(R9, 0x20000160)  returns 0x00 (0000ms, 0188ms total)
T0838 000:247 JLINK_WriteReg(R10, 0x00000000)  returns 0x00 (0000ms, 0188ms total)
T0838 000:247 JLINK_WriteReg(R11, 0x00000000)  returns 0x00 (0000ms, 0188ms total)
T0838 000:247 JLINK_WriteReg(R12, 0x00000000)  returns 0x00 (0000ms, 0188ms total)
T0838 000:248 JLINK_WriteReg(R13 (SP), 0x20001000)  returns 0x00 (0000ms, 0189ms total)
T0838 000:248 JLINK_WriteReg(R14, 0x20000001)  returns 0x00 (0000ms, 0189ms total)
T0838 000:248 JLINK_WriteReg(R15 (PC), 0x2000007C)  returns 0x00 (0000ms, 0189ms total)
T0838 000:248 JLINK_WriteReg(XPSR, 0x01000000)  returns 0x00 (0000ms, 0189ms total)
T0838 000:248 JLINK_WriteReg(MSP, 0x20001000)  returns 0x00 (0000ms, 0189ms total)
T0838 000:248 JLINK_WriteReg(PSP, 0x20001000)  returns 0x00 (0000ms, 0189ms total)
T0838 000:248 JLINK_WriteReg(CFBP, 0x00000000)  returns 0x00 (0000ms, 0189ms total)
T0838 000:248 JLINK_SetBPEx(Addr = 0x20000000, Type = 0xFFFFFFF2)  returns 0x00000002 (0000ms, 0189ms total)
T0838 000:248 JLINK_Go() -- CPU_ReadMem(4 bytes @ 0xE0001000) (0001ms, 0190ms total)
T0838 000:249 JLINK_IsHalted()  returns FALSE (0000ms, 0190ms total)
T0838 000:289 JLINK_IsHalted() -- CPU_ReadMem(2 bytes @ 0x20000000)  returns TRUE (0002ms, 0192ms total)
T0838 000:291 JLINK_ReadReg(R15 (PC))  returns 0x20000000 (0000ms, 0190ms total)
T0838 000:291 JLINK_ClrBPEx(BPHandle = 0x00000002)  returns 0x00 (0000ms, 0190ms total)
T0838 000:291 JLINK_ReadReg(R0)  returns 0x00000000 (0000ms, 0190ms total)
T0838 000:343 JLINK_WriteReg(R0, 0x00000001)  returns 0x00 (0000ms, 0190ms total)
T0838 000:343 JLINK_WriteReg(R1, 0x00B71B00)  returns 0x00 (0000ms, 0190ms total)
T0838 000:343 JLINK_WriteReg(R2, 0x00000001)  returns 0x00 (0000ms, 0190ms total)
T0838 000:343 JLINK_WriteReg(R3, 0x00000000)  returns 0x00 (0000ms, 0190ms total)
T0838 000:343 JLINK_WriteReg(R4, 0x00000000)  returns 0x00 (0000ms, 0190ms total)
T0838 000:343 JLINK_WriteReg(R5, 0x00000000)  returns 0x00 (0000ms, 0190ms total)
T0838 000:343 JLINK_WriteReg(R6, 0x00000000)  returns 0x00 (0000ms, 0190ms total)
T0838 000:343 JLINK_WriteReg(R7, 0x00000000)  returns 0x00 (0000ms, 0190ms total)
T0838 000:343 JLINK_WriteReg(R8, 0x00000000)  returns 0x00 (0000ms, 0190ms total)
T0838 000:343 JLINK_WriteReg(R9, 0x20000160)  returns 0x00 (0000ms, 0190ms total)
T0838 000:343 JLINK_WriteReg(R10, 0x00000000)  returns 0x00 (0000ms, 0190ms total)
T0838 000:343 JLINK_WriteReg(R11, 0x00000000)  returns 0x00 (0000ms, 0190ms total)
T0838 000:343 JLINK_WriteReg(R12, 0x00000000)  returns 0x00 (0000ms, 0190ms total)
T0838 000:343 JLINK_WriteReg(R13 (SP), 0x20001000)  returns 0x00 (0000ms, 0190ms total)
T0838 000:343 JLINK_WriteReg(R14, 0x20000001)  returns 0x00 (0000ms, 0190ms total)
T0838 000:343 JLINK_WriteReg(R15 (PC), 0x2000006A)  returns 0x00 (0000ms, 0190ms total)
T0838 000:343 JLINK_WriteReg(XPSR, 0x01000000)  returns 0x00 (0000ms, 0190ms total)
T0838 000:343 JLINK_WriteReg(MSP, 0x20001000)  returns 0x00 (0000ms, 0190ms total)
T0838 000:343 JLINK_WriteReg(PSP, 0x20001000)  returns 0x00 (0000ms, 0190ms total)
T0838 000:343 JLINK_WriteReg(CFBP, 0x00000000)  returns 0x00 (0000ms, 0190ms total)
T0838 000:343 JLINK_SetBPEx(Addr = 0x20000000, Type = 0xFFFFFFF2)  returns 0x00000003 (0000ms, 0190ms total)
T0838 000:343 JLINK_Go() -- CPU_ReadMem(4 bytes @ 0xE0001000) (0001ms, 0191ms total)
T0838 000:344 JLINK_IsHalted() -- CPU_ReadMem(2 bytes @ 0x20000000)  returns TRUE (0002ms, 0193ms total)
T0838 000:346 JLINK_ReadReg(R15 (PC))  returns 0x20000000 (0000ms, 0191ms total)
T0838 000:346 JLINK_ClrBPEx(BPHandle = 0x00000003)  returns 0x00 (0000ms, 0191ms total)
T0838 000:346 JLINK_ReadReg(R0)  returns 0x00000000 (0000ms, 0191ms total)
T0838 000:349 JLINK_WriteMem(0x20000000, 0x0164 Bytes, ...) - Data: 00 BE 0A E0 0D 78 2D 06 68 40 08 24 40 00 00 D3 ... -- CPU_WriteMem(356 bytes @ 0x20000000)  returns 0x164 (0001ms, 0192ms total)
T0838 000:350 JLINK_WriteReg(R0, 0x08000000)  returns 0x00 (0000ms, 0192ms total)
T0838 000:350 JLINK_WriteReg(R1, 0x00B71B00)  returns 0x00 (0000ms, 0192ms total)
T0838 000:350 JLINK_WriteReg(R2, 0x00000002)  returns 0x00 (0000ms, 0192ms total)
T0838 000:350 JLINK_WriteReg(R3, 0x00000000)  returns 0x00 (0000ms, 0192ms total)
T0838 000:350 JLINK_WriteReg(R4, 0x00000000)  returns 0x00 (0000ms, 0192ms total)
T0838 000:350 JLINK_WriteReg(R5, 0x00000000)  returns 0x00 (0000ms, 0192ms total)
T0838 000:350 JLINK_WriteReg(R6, 0x00000000)  returns 0x00 (0000ms, 0192ms total)
T0838 000:350 JLINK_WriteReg(R7, 0x00000000)  returns 0x00 (0000ms, 0192ms total)
T0838 000:350 JLINK_WriteReg(R8, 0x00000000)  returns 0x00 (0000ms, 0192ms total)
T0838 000:350 JLINK_WriteReg(R9, 0x20000160)  returns 0x00 (0000ms, 0192ms total)
T0838 000:350 JLINK_WriteReg(R10, 0x00000000)  returns 0x00 (0000ms, 0192ms total)
T0838 000:350 JLINK_WriteReg(R11, 0x00000000)  returns 0x00 (0000ms, 0192ms total)
T0838 000:350 JLINK_WriteReg(R12, 0x00000000)  returns 0x00 (0000ms, 0192ms total)
T0838 000:350 JLINK_WriteReg(R13 (SP), 0x20001000)  returns 0x00 (0000ms, 0192ms total)
T0838 000:350 JLINK_WriteReg(R14, 0x20000001)  returns 0x00 (0000ms, 0192ms total)
T0838 000:350 JLINK_WriteReg(R15 (PC), 0x20000038)  returns 0x00 (0000ms, 0192ms total)
T0838 000:350 JLINK_WriteReg(XPSR, 0x01000000)  returns 0x00 (0000ms, 0192ms total)
T0838 000:350 JLINK_WriteReg(MSP, 0x20001000)  returns 0x00 (0000ms, 0192ms total)
T0838 000:350 JLINK_WriteReg(PSP, 0x20001000)  returns 0x00 (0000ms, 0192ms total)
T0838 000:350 JLINK_WriteReg(CFBP, 0x00000000)  returns 0x00 (0000ms, 0192ms total)
T0838 000:350 JLINK_SetBPEx(Addr = 0x20000000, Type = 0xFFFFFFF2) -- CPU_ReadMem(2 bytes @ 0x20000000)  returns 0x00000004 (0001ms, 0193ms total)
T0838 000:351 JLINK_Go() -- CPU_WriteMem(2 bytes @ 0x20000000) -- CPU_ReadMem(4 bytes @ 0xE0001000) (0001ms, 0194ms total)
T0838 000:352 JLINK_IsHalted() -- CPU_ReadMem(2 bytes @ 0x20000000)  returns TRUE (0001ms, 0195ms total)
T0838 000:353 JLINK_ReadReg(R15 (PC))  returns 0x20000000 (0000ms, 0194ms total)
T0838 000:353 JLINK_ClrBPEx(BPHandle = 0x00000004)  returns 0x00 (0000ms, 0194ms total)
T0838 000:353 JLINK_ReadReg(R0)  returns 0x00000000 (0000ms, 0194ms total)
T0838 000:353 JLINK_WriteMem(0x20000164, 0x0400 Bytes, ...) - Data: 58 2E 00 20 1D 02 00 08 2D 10 00 08 01 03 00 08 ... -- CPU_WriteMem(1024 bytes @ 0x20000164)  returns 0x400 (0003ms, 0197ms total)
T0838 000:356 JLINK_WriteReg(R0, 0x08000000)  returns 0x00 (0000ms, 0197ms total)
T0838 000:356 JLINK_WriteReg(R1, 0x00000400)  returns 0x00 (0000ms, 0197ms total)
T0838 000:356 JLINK_WriteReg(R2, 0x20000164)  returns 0x00 (0000ms, 0197ms total)
T0838 000:356 JLINK_WriteReg(R3, 0x00000000)  returns 0x00 (0000ms, 0197ms total)
T0838 000:356 JLINK_WriteReg(R4, 0x00000000)  returns 0x00 (0000ms, 0197ms total)
T0838 000:356 JLINK_WriteReg(R5, 0x00000000)  returns 0x00 (0000ms, 0197ms total)
T0838 000:356 JLINK_WriteReg(R6, 0x00000000)  returns 0x00 (0000ms, 0197ms total)
T0838 000:356 JLINK_WriteReg(R7, 0x00000000)  returns 0x00 (0000ms, 0197ms total)
T0838 000:356 JLINK_WriteReg(R8, 0x00000000)  returns 0x00 (0000ms, 0197ms total)
T0838 000:356 JLINK_WriteReg(R9, 0x20000160)  returns 0x00 (0000ms, 0197ms total)
T0838 000:356 JLINK_WriteReg(R10, 0x00000000)  returns 0x00 (0000ms, 0197ms total)
T0838 000:356 JLINK_WriteReg(R11, 0x00000000)  returns 0x00 (0000ms, 0197ms total)
T0838 000:356 JLINK_WriteReg(R12, 0x00000000)  returns 0x00 (0000ms, 0197ms total)
T0838 000:356 JLINK_WriteReg(R13 (SP), 0x20001000)  returns 0x00 (0000ms, 0197ms total)
T0838 000:356 JLINK_WriteReg(R14, 0x20000001)  returns 0x00 (0000ms, 0197ms total)
T0838 000:356 JLINK_WriteReg(R15 (PC), 0x200000F4)  returns 0x00 (0000ms, 0197ms total)
T0838 000:356 JLINK_WriteReg(XPSR, 0x01000000)  returns 0x00 (0000ms, 0197ms total)
T0838 000:356 JLINK_WriteReg(MSP, 0x20001000)  returns 0x00 (0000ms, 0197ms total)
T0838 000:356 JLINK_WriteReg(PSP, 0x20001000)  returns 0x00 (0000ms, 0197ms total)
T0838 000:356 JLINK_WriteReg(CFBP, 0x00000000)  returns 0x00 (0000ms, 0197ms total)
T0838 000:356 JLINK_SetBPEx(Addr = 0x20000000, Type = 0xFFFFFFF2)  returns 0x00000005 (0000ms, 0197ms total)
T0838 000:356 JLINK_Go() -- CPU_ReadMem(4 bytes @ 0xE0001000) (0001ms, 0198ms total)
T0838 000:357 JLINK_IsHalted()  returns FALSE (0000ms, 0198ms total)
T0838 000:365 JLINK_IsHalted()  returns FALSE (0000ms, 0198ms total)
T0838 000:367 JLINK_IsHalted()  returns FALSE (0000ms, 0198ms total)
T0838 000:368 JLINK_IsHalted()  returns FALSE (0000ms, 0198ms total)
T0838 000:370 JLINK_IsHalted()  returns FALSE (0000ms, 0198ms total)
T0838 000:371 JLINK_IsHalted()  returns FALSE (0000ms, 0198ms total)
T0838 000:373 JLINK_IsHalted()  returns FALSE (0000ms, 0198ms total)
T0838 000:377 JLINK_IsHalted()  returns FALSE (0000ms, 0198ms total)
T0838 000:378 JLINK_IsHalted()  returns FALSE (0000ms, 0198ms total)
T0838 000:379 JLINK_IsHalted()  returns FALSE (0000ms, 0198ms total)
T0838 000:381 JLINK_IsHalted()  returns FALSE (0000ms, 0198ms total)
T0838 000:382 JLINK_IsHalted()  returns FALSE (0000ms, 0198ms total)
T0838 000:386 JLINK_IsHalted()  returns FALSE (0000ms, 0198ms total)
T0838 000:389 JLINK_IsHalted() -- CPU_ReadMem(2 bytes @ 0x20000000)  returns TRUE (0001ms, 0199ms total)
T0838 000:390 JLINK_ReadReg(R15 (PC))  returns 0x20000000 (0000ms, 0198ms total)
T0838 000:390 JLINK_ClrBPEx(BPHandle = 0x00000005)  returns 0x00 (0000ms, 0198ms total)
T0838 000:390 JLINK_ReadReg(R0)  returns 0x00000000 (0000ms, 0198ms total)
T0838 000:390 JLINK_WriteMem(0x20000164, 0x0400 Bytes, ...) - Data: E6 18 C0 1A A8 61 28 6A 18 44 28 62 28 46 AF F3 ... -- CPU_WriteMem(1024 bytes @ 0x20000164)  returns 0x400 (0003ms, 0201ms total)
T0838 000:393 JLINK_WriteReg(R0, 0x08000400)  returns 0x00 (0000ms, 0201ms total)
T0838 000:393 JLINK_WriteReg(R1, 0x00000400)  returns 0x00 (0000ms, 0201ms total)
T0838 000:393 JLINK_WriteReg(R2, 0x20000164)  returns 0x00 (0000ms, 0201ms total)
T0838 000:393 JLINK_WriteReg(R3, 0x00000000)  returns 0x00 (0000ms, 0201ms total)
T0838 000:393 JLINK_WriteReg(R4, 0x00000000)  returns 0x00 (0000ms, 0201ms total)
T0838 000:393 JLINK_WriteReg(R5, 0x00000000)  returns 0x00 (0000ms, 0201ms total)
T0838 000:393 JLINK_WriteReg(R6, 0x00000000)  returns 0x00 (0000ms, 0201ms total)
T0838 000:393 JLINK_WriteReg(R7, 0x00000000)  returns 0x00 (0000ms, 0201ms total)
T0838 000:393 JLINK_WriteReg(R8, 0x00000000)  returns 0x00 (0000ms, 0201ms total)
T0838 000:393 JLINK_WriteReg(R9, 0x20000160)  returns 0x00 (0000ms, 0201ms total)
T0838 000:393 JLINK_WriteReg(R10, 0x00000000)  returns 0x00 (0000ms, 0201ms total)
T0838 000:393 JLINK_WriteReg(R11, 0x00000000)  returns 0x00 (0000ms, 0201ms total)
T0838 000:393 JLINK_WriteReg(R12, 0x00000000)  returns 0x00 (0000ms, 0201ms total)
T0838 000:393 JLINK_WriteReg(R13 (SP), 0x20001000)  returns 0x00 (0000ms, 0201ms total)
T0838 000:393 JLINK_WriteReg(R14, 0x20000001)  returns 0x00 (0000ms, 0201ms total)
T0838 000:393 JLINK_WriteReg(R15 (PC), 0x200000F4)  returns 0x00 (0001ms, 0202ms total)
T0838 000:394 JLINK_WriteReg(XPSR, 0x01000000)  returns 0x00 (0000ms, 0202ms total)
T0838 000:394 JLINK_WriteReg(MSP, 0x20001000)  returns 0x00 (0000ms, 0202ms total)
T0838 000:394 JLINK_WriteReg(PSP, 0x20001000)  returns 0x00 (0000ms, 0202ms total)
T0838 000:394 JLINK_WriteReg(CFBP, 0x00000000)  returns 0x00 (0000ms, 0202ms total)
T0838 000:394 JLINK_SetBPEx(Addr = 0x20000000, Type = 0xFFFFFFF2)  returns 0x00000006 (0000ms, 0202ms total)
T0838 000:394 JLINK_Go() -- CPU_ReadMem(4 bytes @ 0xE0001000) (0001ms, 0203ms total)
T0838 000:395 JLINK_IsHalted()  returns FALSE (0000ms, 0203ms total)
T0838 000:399 JLINK_IsHalted()  returns FALSE (0000ms, 0203ms total)
T0838 000:401 JLINK_IsHalted()  returns FALSE (0000ms, 0203ms total)
T0838 000:403 JLINK_IsHalted()  returns FALSE (0000ms, 0203ms total)
T0838 000:408 JLINK_IsHalted()  returns FALSE (0000ms, 0203ms total)
T0838 000:411 JLINK_IsHalted()  returns FALSE (0000ms, 0203ms total)
T0838 000:412 JLINK_IsHalted()  returns FALSE (0000ms, 0203ms total)
T0838 000:414 JLINK_IsHalted()  returns FALSE (0000ms, 0203ms total)
T0838 000:415 JLINK_IsHalted()  returns FALSE (0000ms, 0203ms total)
T0838 000:417 JLINK_IsHalted()  returns FALSE (0000ms, 0203ms total)
T0838 000:418 JLINK_IsHalted()  returns FALSE (0000ms, 0203ms total)
T0838 000:422 JLINK_IsHalted()  returns FALSE (0000ms, 0203ms total)
T0838 000:423 JLINK_IsHalted()  returns FALSE (0000ms, 0203ms total)
T0838 000:426 JLINK_IsHalted() -- CPU_ReadMem(2 bytes @ 0x20000000)  returns TRUE (0002ms, 0205ms total)
T0838 000:428 JLINK_ReadReg(R15 (PC))  returns 0x20000000 (0000ms, 0203ms total)
T0838 000:428 JLINK_ClrBPEx(BPHandle = 0x00000006)  returns 0x00 (0000ms, 0203ms total)
T0838 000:428 JLINK_ReadReg(R0)  returns 0x00000000 (0000ms, 0203ms total)
T0838 000:428 JLINK_WriteMem(0x20000164, 0x0400 Bytes, ...) - Data: 00 B1 03 E0 B4 21 42 A0 03 F0 22 FA E0 78 00 F0 ... -- CPU_WriteMem(1024 bytes @ 0x20000164)  returns 0x400 (0003ms, 0206ms total)
T0838 000:431 JLINK_WriteReg(R0, 0x08000800)  returns 0x00 (0000ms, 0206ms total)
T0838 000:431 JLINK_WriteReg(R1, 0x00000400)  returns 0x00 (0000ms, 0206ms total)
T0838 000:431 JLINK_WriteReg(R2, 0x20000164)  returns 0x00 (0000ms, 0206ms total)
T0838 000:431 JLINK_WriteReg(R3, 0x00000000)  returns 0x00 (0000ms, 0206ms total)
T0838 000:431 JLINK_WriteReg(R4, 0x00000000)  returns 0x00 (0000ms, 0206ms total)
T0838 000:431 JLINK_WriteReg(R5, 0x00000000)  returns 0x00 (0000ms, 0206ms total)
T0838 000:431 JLINK_WriteReg(R6, 0x00000000)  returns 0x00 (0000ms, 0206ms total)
T0838 000:431 JLINK_WriteReg(R7, 0x00000000)  returns 0x00 (0000ms, 0206ms total)
T0838 000:431 JLINK_WriteReg(R8, 0x00000000)  returns 0x00 (0000ms, 0206ms total)
T0838 000:431 JLINK_WriteReg(R9, 0x20000160)  returns 0x00 (0000ms, 0206ms total)
T0838 000:431 JLINK_WriteReg(R10, 0x00000000)  returns 0x00 (0000ms, 0206ms total)
T0838 000:431 JLINK_WriteReg(R11, 0x00000000)  returns 0x00 (0000ms, 0206ms total)
T0838 000:431 JLINK_WriteReg(R12, 0x00000000)  returns 0x00 (0000ms, 0206ms total)
T0838 000:431 JLINK_WriteReg(R13 (SP), 0x20001000)  returns 0x00 (0000ms, 0206ms total)
T0838 000:431 JLINK_WriteReg(R14, 0x20000001)  returns 0x00 (0000ms, 0206ms total)
T0838 000:431 JLINK_WriteReg(R15 (PC), 0x200000F4)  returns 0x00 (0000ms, 0206ms total)
T0838 000:431 JLINK_WriteReg(XPSR, 0x01000000)  returns 0x00 (0000ms, 0206ms total)
T0838 000:431 JLINK_WriteReg(MSP, 0x20001000)  returns 0x00 (0000ms, 0206ms total)
T0838 000:431 JLINK_WriteReg(PSP, 0x20001000)  returns 0x00 (0000ms, 0206ms total)
T0838 000:431 JLINK_WriteReg(CFBP, 0x00000000)  returns 0x00 (0000ms, 0206ms total)
T0838 000:431 JLINK_SetBPEx(Addr = 0x20000000, Type = 0xFFFFFFF2)  returns 0x00000007 (0000ms, 0206ms total)
T0838 000:431 JLINK_Go() -- CPU_ReadMem(4 bytes @ 0xE0001000) (0001ms, 0207ms total)
T0838 000:432 JLINK_IsHalted()  returns FALSE (0000ms, 0207ms total)
T0838 000:435 JLINK_IsHalted()  returns FALSE (0000ms, 0207ms total)
T0838 000:437 JLINK_IsHalted()  returns FALSE (0000ms, 0207ms total)
T0838 000:440 JLINK_IsHalted()  returns FALSE (0000ms, 0207ms total)
T0838 000:441 JLINK_IsHalted()  returns FALSE (0000ms, 0207ms total)
T0838 000:443 JLINK_IsHalted()  returns FALSE (0000ms, 0207ms total)
T0838 000:444 JLINK_IsHalted()  returns FALSE (0000ms, 0207ms total)
T0838 000:446 JLINK_IsHalted()  returns FALSE (0000ms, 0207ms total)
T0838 000:447 JLINK_IsHalted()  returns FALSE (0000ms, 0207ms total)
T0838 000:449 JLINK_IsHalted()  returns FALSE (0000ms, 0207ms total)
T0838 000:452 JLINK_IsHalted()  returns FALSE (0000ms, 0207ms total)
T0838 000:455 JLINK_IsHalted()  returns FALSE (0000ms, 0207ms total)
T0838 000:457 JLINK_IsHalted()  returns FALSE (0000ms, 0207ms total)
T0838 000:458 JLINK_IsHalted()  returns FALSE (0000ms, 0207ms total)
T0838 000:459 JLINK_IsHalted()  returns FALSE (0000ms, 0207ms total)
T0838 000:461 JLINK_IsHalted()  returns FALSE (0000ms, 0207ms total)
T0838 000:462 JLINK_IsHalted()  returns FALSE (0000ms, 0207ms total)
T0838 000:466 JLINK_IsHalted() -- CPU_ReadMem(2 bytes @ 0x20000000)  returns TRUE (0001ms, 0208ms total)
T0838 000:467 JLINK_ReadReg(R15 (PC))  returns 0x20000000 (0000ms, 0207ms total)
T0838 000:467 JLINK_ClrBPEx(BPHandle = 0x00000007)  returns 0x00 (0000ms, 0207ms total)
T0838 000:467 JLINK_ReadReg(R0)  returns 0x00000000 (0000ms, 0207ms total)
T0838 000:469 JLINK_WriteMem(0x20000164, 0x0400 Bytes, ...) - Data: 00 20 01 40 2E 2E 5C 4C 69 62 72 61 72 69 65 73 ... -- CPU_WriteMem(1024 bytes @ 0x20000164)  returns 0x400 (0003ms, 0210ms total)
T0838 000:472 JLINK_WriteReg(R0, 0x08000C00)  returns 0x00 (0000ms, 0210ms total)
T0838 000:472 JLINK_WriteReg(R1, 0x00000400)  returns 0x00 (0000ms, 0210ms total)
T0838 000:472 JLINK_WriteReg(R2, 0x20000164)  returns 0x00 (0000ms, 0210ms total)
T0838 000:472 JLINK_WriteReg(R3, 0x00000000)  returns 0x00 (0000ms, 0210ms total)
T0838 000:472 JLINK_WriteReg(R4, 0x00000000)  returns 0x00 (0000ms, 0210ms total)
T0838 000:472 JLINK_WriteReg(R5, 0x00000000)  returns 0x00 (0000ms, 0210ms total)
T0838 000:472 JLINK_WriteReg(R6, 0x00000000)  returns 0x00 (0000ms, 0210ms total)
T0838 000:472 JLINK_WriteReg(R7, 0x00000000)  returns 0x00 (0000ms, 0210ms total)
T0838 000:472 JLINK_WriteReg(R8, 0x00000000)  returns 0x00 (0000ms, 0210ms total)
T0838 000:472 JLINK_WriteReg(R9, 0x20000160)  returns 0x00 (0000ms, 0210ms total)
T0838 000:472 JLINK_WriteReg(R10, 0x00000000)  returns 0x00 (0000ms, 0210ms total)
T0838 000:472 JLINK_WriteReg(R11, 0x00000000)  returns 0x00 (0000ms, 0210ms total)
T0838 000:472 JLINK_WriteReg(R12, 0x00000000)  returns 0x00 (0000ms, 0210ms total)
T0838 000:472 JLINK_WriteReg(R13 (SP), 0x20001000)  returns 0x00 (0000ms, 0210ms total)
T0838 000:472 JLINK_WriteReg(R14, 0x20000001)  returns 0x00 (0000ms, 0210ms total)
T0838 000:472 JLINK_WriteReg(R15 (PC), 0x200000F4)  returns 0x00 (0000ms, 0210ms total)
T0838 000:472 JLINK_WriteReg(XPSR, 0x01000000)  returns 0x00 (0000ms, 0210ms total)
T0838 000:472 JLINK_WriteReg(MSP, 0x20001000)  returns 0x00 (0000ms, 0210ms total)
T0838 000:472 JLINK_WriteReg(PSP, 0x20001000)  returns 0x00 (0000ms, 0210ms total)
T0838 000:472 JLINK_WriteReg(CFBP, 0x00000000)  returns 0x00 (0000ms, 0210ms total)
T0838 000:472 JLINK_SetBPEx(Addr = 0x20000000, Type = 0xFFFFFFF2)  returns 0x00000008 (0000ms, 0210ms total)
T0838 000:472 JLINK_Go() -- CPU_ReadMem(4 bytes @ 0xE0001000) (0001ms, 0211ms total)
T0838 000:473 JLINK_IsHalted()  returns FALSE (0000ms, 0211ms total)
T0838 000:477 JLINK_IsHalted()  returns FALSE (0000ms, 0211ms total)
T0838 000:478 JLINK_IsHalted()  returns FALSE (0000ms, 0211ms total)
T0838 000:481 JLINK_IsHalted()  returns FALSE (0000ms, 0211ms total)
T0838 000:482 JLINK_IsHalted()  returns FALSE (0000ms, 0211ms total)
T0838 000:486 JLINK_IsHalted()  returns FALSE (0000ms, 0211ms total)
T0838 000:487 JLINK_IsHalted()  returns FALSE (0000ms, 0211ms total)
T0838 000:488 JLINK_IsHalted()  returns FALSE (0000ms, 0211ms total)
T0838 000:490 JLINK_IsHalted()  returns FALSE (0000ms, 0211ms total)
T0838 000:491 JLINK_IsHalted()  returns FALSE (0000ms, 0211ms total)
T0838 000:493 JLINK_IsHalted()  returns FALSE (0000ms, 0211ms total)
T0838 000:496 JLINK_IsHalted()  returns FALSE (0000ms, 0211ms total)
T0838 000:498 JLINK_IsHalted()  returns FALSE (0000ms, 0211ms total)
T0838 000:499 JLINK_IsHalted()  returns FALSE (0000ms, 0211ms total)
T0838 000:502 JLINK_IsHalted()  returns FALSE (0000ms, 0211ms total)
T0838 000:503 JLINK_IsHalted()  returns FALSE (0000ms, 0211ms total)
T0838 000:505 JLINK_IsHalted() -- CPU_ReadMem(2 bytes @ 0x20000000)  returns TRUE (0002ms, 0213ms total)
T0838 000:507 JLINK_ReadReg(R15 (PC))  returns 0x20000000 (0000ms, 0211ms total)
T0838 000:507 JLINK_ClrBPEx(BPHandle = 0x00000008)  returns 0x00 (0000ms, 0211ms total)
T0838 000:507 JLINK_ReadReg(R0)  returns 0x00000000 (0000ms, 0211ms total)
T0838 000:507 JLINK_WriteMem(0x20000164, 0x0400 Bytes, ...) - Data: 07 DA 1D 07 2B 0E 01 EB 40 05 55 5D 30 3D 1D 44 ... -- CPU_WriteMem(1024 bytes @ 0x20000164)  returns 0x400 (0002ms, 0213ms total)
T0838 000:509 JLINK_WriteReg(R0, 0x08001000)  returns 0x00 (0000ms, 0213ms total)
T0838 000:509 JLINK_WriteReg(R1, 0x00000400)  returns 0x00 (0000ms, 0213ms total)
T0838 000:509 JLINK_WriteReg(R2, 0x20000164)  returns 0x00 (0000ms, 0213ms total)
T0838 000:509 JLINK_WriteReg(R3, 0x00000000)  returns 0x00 (0000ms, 0213ms total)
T0838 000:509 JLINK_WriteReg(R4, 0x00000000)  returns 0x00 (0000ms, 0213ms total)
T0838 000:509 JLINK_WriteReg(R5, 0x00000000)  returns 0x00 (0000ms, 0213ms total)
T0838 000:509 JLINK_WriteReg(R6, 0x00000000)  returns 0x00 (0000ms, 0213ms total)
T0838 000:509 JLINK_WriteReg(R7, 0x00000000)  returns 0x00 (0000ms, 0213ms total)
T0838 000:509 JLINK_WriteReg(R8, 0x00000000)  returns 0x00 (0000ms, 0213ms total)
T0838 000:509 JLINK_WriteReg(R9, 0x20000160)  returns 0x00 (0000ms, 0213ms total)
T0838 000:509 JLINK_WriteReg(R10, 0x00000000)  returns 0x00 (0000ms, 0213ms total)
T0838 000:509 JLINK_WriteReg(R11, 0x00000000)  returns 0x00 (0000ms, 0213ms total)
T0838 000:509 JLINK_WriteReg(R12, 0x00000000)  returns 0x00 (0000ms, 0213ms total)
T0838 000:509 JLINK_WriteReg(R13 (SP), 0x20001000)  returns 0x00 (0000ms, 0213ms total)
T0838 000:509 JLINK_WriteReg(R14, 0x20000001)  returns 0x00 (0000ms, 0213ms total)
T0838 000:509 JLINK_WriteReg(R15 (PC), 0x200000F4)  returns 0x00 (0000ms, 0213ms total)
T0838 000:509 JLINK_WriteReg(XPSR, 0x01000000)  returns 0x00 (0000ms, 0213ms total)
T0838 000:509 JLINK_WriteReg(MSP, 0x20001000)  returns 0x00 (0000ms, 0213ms total)
T0838 000:509 JLINK_WriteReg(PSP, 0x20001000)  returns 0x00 (0000ms, 0213ms total)
T0838 000:509 JLINK_WriteReg(CFBP, 0x00000000)  returns 0x00 (0000ms, 0213ms total)
T0838 000:509 JLINK_SetBPEx(Addr = 0x20000000, Type = 0xFFFFFFF2)  returns 0x00000009 (0000ms, 0213ms total)
T0838 000:509 JLINK_Go() -- CPU_ReadMem(4 bytes @ 0xE0001000) (0002ms, 0215ms total)
T0838 000:511 JLINK_IsHalted()  returns FALSE (0000ms, 0215ms total)
T0838 000:518 JLINK_IsHalted()  returns FALSE (0000ms, 0215ms total)
T0838 000:519 JLINK_IsHalted()  returns FALSE (0000ms, 0215ms total)
T0838 000:521 JLINK_IsHalted()  returns FALSE (0000ms, 0215ms total)
T0838 000:522 JLINK_IsHalted()  returns FALSE (0000ms, 0215ms total)
T0838 000:525 JLINK_IsHalted()  returns FALSE (0000ms, 0215ms total)
T0838 000:527 JLINK_IsHalted()  returns FALSE (0000ms, 0215ms total)
T0838 000:528 JLINK_IsHalted()  returns FALSE (0000ms, 0215ms total)
T0838 000:532 JLINK_IsHalted()  returns FALSE (0000ms, 0215ms total)
T0838 000:534 JLINK_IsHalted()  returns FALSE (0000ms, 0215ms total)
T0838 000:535 JLINK_IsHalted()  returns FALSE (0000ms, 0215ms total)
T0838 000:537 JLINK_IsHalted()  returns FALSE (0000ms, 0215ms total)
T0838 000:538 JLINK_IsHalted()  returns FALSE (0000ms, 0215ms total)
T0838 000:542 JLINK_IsHalted()  returns FALSE (0000ms, 0215ms total)
T0838 000:543 JLINK_IsHalted() -- CPU_ReadMem(2 bytes @ 0x20000000)  returns TRUE (0002ms, 0217ms total)
T0838 000:545 JLINK_ReadReg(R15 (PC))  returns 0x20000000 (0000ms, 0215ms total)
T0838 000:545 JLINK_ClrBPEx(BPHandle = 0x00000009)  returns 0x00 (0000ms, 0215ms total)
T0838 000:545 JLINK_ReadReg(R0)  returns 0x00000000 (0000ms, 0215ms total)
T0838 000:545 JLINK_WriteMem(0x20000164, 0x0400 Bytes, ...) - Data: 10 20 FF F7 67 FF 01 21 C8 04 FF F7 D7 FE 10 BD ... -- CPU_WriteMem(1024 bytes @ 0x20000164)  returns 0x400 (0002ms, 0217ms total)
T0838 000:547 JLINK_WriteReg(R0, 0x08001400)  returns 0x00 (0000ms, 0217ms total)
T0838 000:547 JLINK_WriteReg(R1, 0x00000400)  returns 0x00 (0000ms, 0217ms total)
T0838 000:547 JLINK_WriteReg(R2, 0x20000164)  returns 0x00 (0000ms, 0217ms total)
T0838 000:547 JLINK_WriteReg(R3, 0x00000000)  returns 0x00 (0000ms, 0217ms total)
T0838 000:547 JLINK_WriteReg(R4, 0x00000000)  returns 0x00 (0000ms, 0217ms total)
T0838 000:548 JLINK_WriteReg(R5, 0x00000000)  returns 0x00 (0000ms, 0218ms total)
T0838 000:548 JLINK_WriteReg(R6, 0x00000000)  returns 0x00 (0000ms, 0218ms total)
T0838 000:548 JLINK_WriteReg(R7, 0x00000000)  returns 0x00 (0000ms, 0218ms total)
T0838 000:548 JLINK_WriteReg(R8, 0x00000000)  returns 0x00 (0000ms, 0218ms total)
T0838 000:548 JLINK_WriteReg(R9, 0x20000160)  returns 0x00 (0000ms, 0218ms total)
T0838 000:548 JLINK_WriteReg(R10, 0x00000000)  returns 0x00 (0000ms, 0218ms total)
T0838 000:548 JLINK_WriteReg(R11, 0x00000000)  returns 0x00 (0000ms, 0218ms total)
T0838 000:548 JLINK_WriteReg(R12, 0x00000000)  returns 0x00 (0000ms, 0218ms total)
T0838 000:548 JLINK_WriteReg(R13 (SP), 0x20001000)  returns 0x00 (0000ms, 0218ms total)
T0838 000:548 JLINK_WriteReg(R14, 0x20000001)  returns 0x00 (0000ms, 0218ms total)
T0838 000:548 JLINK_WriteReg(R15 (PC), 0x200000F4)  returns 0x00 (0000ms, 0218ms total)
T0838 000:548 JLINK_WriteReg(XPSR, 0x01000000)  returns 0x00 (0000ms, 0218ms total)
T0838 000:548 JLINK_WriteReg(MSP, 0x20001000)  returns 0x00 (0000ms, 0218ms total)
T0838 000:548 JLINK_WriteReg(PSP, 0x20001000)  returns 0x00 (0000ms, 0218ms total)
T0838 000:548 JLINK_WriteReg(CFBP, 0x00000000)  returns 0x00 (0000ms, 0218ms total)
T0838 000:548 JLINK_SetBPEx(Addr = 0x20000000, Type = 0xFFFFFFF2)  returns 0x0000000A (0000ms, 0218ms total)
T0838 000:548 JLINK_Go() -- CPU_ReadMem(4 bytes @ 0xE0001000) (0001ms, 0219ms total)
T0838 000:549 JLINK_IsHalted()  returns FALSE (0001ms, 0220ms total)
T0838 000:553 JLINK_IsHalted()  returns FALSE (0000ms, 0219ms total)
T0838 000:554 JLINK_IsHalted()  returns FALSE (0000ms, 0219ms total)
T0838 000:557 JLINK_IsHalted()  returns FALSE (0000ms, 0219ms total)
T0838 000:559 JLINK_IsHalted()  returns FALSE (0000ms, 0219ms total)
T0838 000:562 JLINK_IsHalted()  returns FALSE (0000ms, 0219ms total)
T0838 000:563 JLINK_IsHalted()  returns FALSE (0000ms, 0219ms total)
T0838 000:564 JLINK_IsHalted()  returns FALSE (0000ms, 0219ms total)
T0838 000:566 JLINK_IsHalted()  returns FALSE (0000ms, 0219ms total)
T0838 000:568 JLINK_IsHalted()  returns FALSE (0000ms, 0219ms total)
T0838 000:571 JLINK_IsHalted()  returns FALSE (0000ms, 0219ms total)
T0838 000:573 JLINK_IsHalted()  returns FALSE (0000ms, 0219ms total)
T0838 000:575 JLINK_IsHalted()  returns FALSE (0000ms, 0219ms total)
T0838 000:578 JLINK_IsHalted()  returns FALSE (0000ms, 0219ms total)
T0838 000:579 JLINK_IsHalted()  returns FALSE (0000ms, 0219ms total)
T0838 000:581 JLINK_IsHalted() -- CPU_ReadMem(2 bytes @ 0x20000000)  returns TRUE (0001ms, 0220ms total)
T0838 000:582 JLINK_ReadReg(R15 (PC))  returns 0x20000000 (0000ms, 0219ms total)
T0838 000:582 JLINK_ClrBPEx(BPHandle = 0x0000000A)  returns 0x00 (0000ms, 0219ms total)
T0838 000:582 JLINK_ReadReg(R0)  returns 0x00000000 (0000ms, 0219ms total)
T0838 000:583 JLINK_WriteMem(0x20000164, 0x0400 Bytes, ...) - Data: B6 F5 80 7F 01 DD 4F F4 80 76 03 E0 28 78 00 F0 ... -- CPU_WriteMem(1024 bytes @ 0x20000164)  returns 0x400 (0002ms, 0221ms total)
T0838 000:585 JLINK_WriteReg(R0, 0x08001800)  returns 0x00 (0000ms, 0221ms total)
T0838 000:585 JLINK_WriteReg(R1, 0x00000400)  returns 0x00 (0000ms, 0221ms total)
T0838 000:585 JLINK_WriteReg(R2, 0x20000164)  returns 0x00 (0000ms, 0221ms total)
T0838 000:585 JLINK_WriteReg(R3, 0x00000000)  returns 0x00 (0000ms, 0221ms total)
T0838 000:585 JLINK_WriteReg(R4, 0x00000000)  returns 0x00 (0000ms, 0221ms total)
T0838 000:585 JLINK_WriteReg(R5, 0x00000000)  returns 0x00 (0000ms, 0221ms total)
T0838 000:585 JLINK_WriteReg(R6, 0x00000000)  returns 0x00 (0000ms, 0221ms total)
T0838 000:585 JLINK_WriteReg(R7, 0x00000000)  returns 0x00 (0000ms, 0221ms total)
T0838 000:585 JLINK_WriteReg(R8, 0x00000000)  returns 0x00 (0001ms, 0222ms total)
T0838 000:586 JLINK_WriteReg(R9, 0x20000160)  returns 0x00 (0000ms, 0222ms total)
T0838 000:586 JLINK_WriteReg(R10, 0x00000000)  returns 0x00 (0000ms, 0222ms total)
T0838 000:586 JLINK_WriteReg(R11, 0x00000000)  returns 0x00 (0000ms, 0222ms total)
T0838 000:586 JLINK_WriteReg(R12, 0x00000000)  returns 0x00 (0000ms, 0222ms total)
T0838 000:586 JLINK_WriteReg(R13 (SP), 0x20001000)  returns 0x00 (0000ms, 0222ms total)
T0838 000:586 JLINK_WriteReg(R14, 0x20000001)  returns 0x00 (0000ms, 0222ms total)
T0838 000:586 JLINK_WriteReg(R15 (PC), 0x200000F4)  returns 0x00 (0000ms, 0222ms total)
T0838 000:586 JLINK_WriteReg(XPSR, 0x01000000)  returns 0x00 (0000ms, 0222ms total)
T0838 000:586 JLINK_WriteReg(MSP, 0x20001000)  returns 0x00 (0000ms, 0222ms total)
T0838 000:586 JLINK_WriteReg(PSP, 0x20001000)  returns 0x00 (0000ms, 0222ms total)
T0838 000:586 JLINK_WriteReg(CFBP, 0x00000000)  returns 0x00 (0000ms, 0222ms total)
T0838 000:586 JLINK_SetBPEx(Addr = 0x20000000, Type = 0xFFFFFFF2)  returns 0x0000000B (0000ms, 0222ms total)
T0838 000:586 JLINK_Go() -- CPU_ReadMem(4 bytes @ 0xE0001000) (0001ms, 0223ms total)
T0838 000:587 JLINK_IsHalted()  returns FALSE (0000ms, 0223ms total)
T0838 000:591 JLINK_IsHalted()  returns FALSE (0000ms, 0223ms total)
T0838 000:593 JLINK_IsHalted()  returns FALSE (0000ms, 0223ms total)
T0838 000:594 JLINK_IsHalted()  returns FALSE (0000ms, 0223ms total)
T0838 000:596 JLINK_IsHalted()  returns FALSE (0000ms, 0223ms total)
T0838 000:598 JLINK_IsHalted()  returns FALSE (0000ms, 0223ms total)
T0838 000:599 JLINK_IsHalted()  returns FALSE (0000ms, 0223ms total)
T0838 000:603 JLINK_IsHalted()  returns FALSE (0000ms, 0223ms total)
T0838 000:604 JLINK_IsHalted()  returns FALSE (0000ms, 0223ms total)
T0838 000:607 JLINK_IsHalted()  returns FALSE (0001ms, 0224ms total)
T0838 000:609 JLINK_IsHalted()  returns FALSE (0000ms, 0223ms total)
T0838 000:611 JLINK_IsHalted()  returns FALSE (0000ms, 0223ms total)
T0838 000:612 JLINK_IsHalted()  returns FALSE (0000ms, 0223ms total)
T0838 000:614 JLINK_IsHalted()  returns FALSE (0000ms, 0223ms total)
T0838 000:615 JLINK_IsHalted()  returns FALSE (0000ms, 0223ms total)
T0838 000:619 JLINK_IsHalted() -- CPU_ReadMem(2 bytes @ 0x20000000)  returns TRUE (0001ms, 0224ms total)
T0838 000:620 JLINK_ReadReg(R15 (PC))  returns 0x20000000 (0000ms, 0223ms total)
T0838 000:620 JLINK_ClrBPEx(BPHandle = 0x0000000B)  returns 0x00 (0000ms, 0223ms total)
T0838 000:620 JLINK_ReadReg(R0)  returns 0x00000000 (0000ms, 0223ms total)
T0838 000:621 JLINK_WriteMem(0x20000164, 0x0400 Bytes, ...) - Data: 5F 44 72 69 76 65 72 5C 73 72 63 5C 73 74 6D 33 ... -- CPU_WriteMem(1024 bytes @ 0x20000164)  returns 0x400 (0002ms, 0225ms total)
T0838 000:623 JLINK_WriteReg(R0, 0x08001C00)  returns 0x00 (0000ms, 0225ms total)
T0838 000:623 JLINK_WriteReg(R1, 0x00000400)  returns 0x00 (0000ms, 0225ms total)
T0838 000:623 JLINK_WriteReg(R2, 0x20000164)  returns 0x00 (0000ms, 0225ms total)
T0838 000:623 JLINK_WriteReg(R3, 0x00000000)  returns 0x00 (0000ms, 0225ms total)
T0838 000:623 JLINK_WriteReg(R4, 0x00000000)  returns 0x00 (0000ms, 0225ms total)
T0838 000:623 JLINK_WriteReg(R5, 0x00000000)  returns 0x00 (0000ms, 0225ms total)
T0838 000:623 JLINK_WriteReg(R6, 0x00000000)  returns 0x00 (0000ms, 0225ms total)
T0838 000:623 JLINK_WriteReg(R7, 0x00000000)  returns 0x00 (0000ms, 0225ms total)
T0838 000:623 JLINK_WriteReg(R8, 0x00000000)  returns 0x00 (0000ms, 0225ms total)
T0838 000:623 JLINK_WriteReg(R9, 0x20000160)  returns 0x00 (0000ms, 0225ms total)
T0838 000:623 JLINK_WriteReg(R10, 0x00000000)  returns 0x00 (0000ms, 0225ms total)
T0838 000:623 JLINK_WriteReg(R11, 0x00000000)  returns 0x00 (0000ms, 0225ms total)
T0838 000:623 JLINK_WriteReg(R12, 0x00000000)  returns 0x00 (0000ms, 0225ms total)
T0838 000:623 JLINK_WriteReg(R13 (SP), 0x20001000)  returns 0x00 (0000ms, 0225ms total)
T0838 000:623 JLINK_WriteReg(R14, 0x20000001)  returns 0x00 (0000ms, 0225ms total)
T0838 000:623 JLINK_WriteReg(R15 (PC), 0x200000F4)  returns 0x00 (0000ms, 0225ms total)
T0838 000:623 JLINK_WriteReg(XPSR, 0x01000000)  returns 0x00 (0000ms, 0225ms total)
T0838 000:623 JLINK_WriteReg(MSP, 0x20001000)  returns 0x00 (0000ms, 0225ms total)
T0838 000:623 JLINK_WriteReg(PSP, 0x20001000)  returns 0x00 (0000ms, 0225ms total)
T0838 000:623 JLINK_WriteReg(CFBP, 0x00000000)  returns 0x00 (0000ms, 0225ms total)
T0838 000:623 JLINK_SetBPEx(Addr = 0x20000000, Type = 0xFFFFFFF2)  returns 0x0000000C (0000ms, 0225ms total)
T0838 000:623 JLINK_Go() -- CPU_ReadMem(4 bytes @ 0xE0001000) (0001ms, 0226ms total)
T0838 000:624 JLINK_IsHalted()  returns FALSE (0001ms, 0227ms total)
T0838 000:631 JLINK_IsHalted()  returns FALSE (0000ms, 0226ms total)
T0838 000:632 JLINK_IsHalted()  returns FALSE (0000ms, 0226ms total)
T0838 000:634 JLINK_IsHalted()  returns FALSE (0000ms, 0226ms total)
T0838 000:637 JLINK_IsHalted()  returns FALSE (0000ms, 0226ms total)
T0838 000:638 JLINK_IsHalted()  returns FALSE (0000ms, 0226ms total)
T0838 000:641 JLINK_IsHalted()  returns FALSE (0000ms, 0226ms total)
T0838 000:642 JLINK_IsHalted()  returns FALSE (0000ms, 0226ms total)
T0838 000:644 JLINK_IsHalted()  returns FALSE (0000ms, 0226ms total)
T0838 000:645 JLINK_IsHalted()  returns FALSE (0001ms, 0227ms total)
T0838 000:648 JLINK_IsHalted()  returns FALSE (0000ms, 0226ms total)
T0838 000:651 JLINK_IsHalted()  returns FALSE (0000ms, 0226ms total)
T0838 000:654 JLINK_IsHalted()  returns FALSE (0000ms, 0226ms total)
T0838 000:656 JLINK_IsHalted() -- CPU_ReadMem(2 bytes @ 0x20000000)  returns TRUE (0001ms, 0227ms total)
T0838 000:657 JLINK_ReadReg(R15 (PC))  returns 0x20000000 (0000ms, 0226ms total)
T0838 000:657 JLINK_ClrBPEx(BPHandle = 0x0000000C)  returns 0x00 (0000ms, 0226ms total)
T0838 000:657 JLINK_ReadReg(R0)  returns 0x00000000 (0000ms, 0226ms total)
T0838 000:657 JLINK_WriteMem(0x20000164, 0x0400 Bytes, ...) - Data: 10 B5 03 F0 55 FF 05 F0 EF FB 0A 48 00 78 40 1C ... -- CPU_WriteMem(1024 bytes @ 0x20000164)  returns 0x400 (0003ms, 0229ms total)
T0838 000:660 JLINK_WriteReg(R0, 0x08002000)  returns 0x00 (0000ms, 0229ms total)
T0838 000:660 JLINK_WriteReg(R1, 0x00000400)  returns 0x00 (0000ms, 0229ms total)
T0838 000:660 JLINK_WriteReg(R2, 0x20000164)  returns 0x00 (0000ms, 0229ms total)
T0838 000:660 JLINK_WriteReg(R3, 0x00000000)  returns 0x00 (0000ms, 0229ms total)
T0838 000:660 JLINK_WriteReg(R4, 0x00000000)  returns 0x00 (0000ms, 0229ms total)
T0838 000:660 JLINK_WriteReg(R5, 0x00000000)  returns 0x00 (0000ms, 0229ms total)
T0838 000:660 JLINK_WriteReg(R6, 0x00000000)  returns 0x00 (0000ms, 0229ms total)
T0838 000:660 JLINK_WriteReg(R7, 0x00000000)  returns 0x00 (0000ms, 0229ms total)
T0838 000:660 JLINK_WriteReg(R8, 0x00000000)  returns 0x00 (0000ms, 0229ms total)
T0838 000:660 JLINK_WriteReg(R9, 0x20000160)  returns 0x00 (0000ms, 0229ms total)
T0838 000:660 JLINK_WriteReg(R10, 0x00000000)  returns 0x00 (0000ms, 0229ms total)
T0838 000:660 JLINK_WriteReg(R11, 0x00000000)  returns 0x00 (0000ms, 0229ms total)
T0838 000:660 JLINK_WriteReg(R12, 0x00000000)  returns 0x00 (0000ms, 0229ms total)
T0838 000:660 JLINK_WriteReg(R13 (SP), 0x20001000)  returns 0x00 (0000ms, 0229ms total)
T0838 000:660 JLINK_WriteReg(R14, 0x20000001)  returns 0x00 (0000ms, 0229ms total)
T0838 000:660 JLINK_WriteReg(R15 (PC), 0x200000F4)  returns 0x00 (0000ms, 0229ms total)
T0838 000:660 JLINK_WriteReg(XPSR, 0x01000000)  returns 0x00 (0000ms, 0229ms total)
T0838 000:660 JLINK_WriteReg(MSP, 0x20001000)  returns 0x00 (0000ms, 0229ms total)
T0838 000:660 JLINK_WriteReg(PSP, 0x20001000)  returns 0x00 (0000ms, 0229ms total)
T0838 000:660 JLINK_WriteReg(CFBP, 0x00000000)  returns 0x00 (0000ms, 0229ms total)
T0838 000:660 JLINK_SetBPEx(Addr = 0x20000000, Type = 0xFFFFFFF2)  returns 0x0000000D (0000ms, 0229ms total)
T0838 000:660 JLINK_Go() -- CPU_ReadMem(4 bytes @ 0xE0001000) (0002ms, 0231ms total)
T0838 000:662 JLINK_IsHalted()  returns FALSE (0000ms, 0231ms total)
T0838 000:665 JLINK_IsHalted()  returns FALSE (0000ms, 0231ms total)
T0838 000:668 JLINK_IsHalted()  returns FALSE (0000ms, 0231ms total)
T0838 000:669 JLINK_IsHalted()  returns FALSE (0001ms, 0232ms total)
T0838 000:671 JLINK_IsHalted()  returns FALSE (0000ms, 0231ms total)
T0838 000:672 JLINK_IsHalted()  returns FALSE (0000ms, 0231ms total)
T0838 000:674 JLINK_IsHalted()  returns FALSE (0000ms, 0231ms total)
T0838 000:677 JLINK_IsHalted()  returns FALSE (0000ms, 0231ms total)
T0838 000:679 JLINK_IsHalted()  returns FALSE (0000ms, 0231ms total)
T0838 000:681 JLINK_IsHalted()  returns FALSE (0000ms, 0231ms total)
T0838 000:684 JLINK_IsHalted()  returns FALSE (0000ms, 0231ms total)
T0838 000:685 JLINK_IsHalted()  returns FALSE (0000ms, 0231ms total)
T0838 000:687 JLINK_IsHalted()  returns FALSE (0000ms, 0231ms total)
T0838 000:688 JLINK_IsHalted()  returns FALSE (0000ms, 0231ms total)
T0838 000:689 JLINK_IsHalted()  returns FALSE (0000ms, 0231ms total)
T0838 000:691 JLINK_IsHalted()  returns FALSE (0000ms, 0231ms total)
T0838 000:694 JLINK_IsHalted() -- CPU_ReadMem(2 bytes @ 0x20000000)  returns TRUE (0002ms, 0233ms total)
T0838 000:696 JLINK_ReadReg(R15 (PC))  returns 0x20000000 (0000ms, 0231ms total)
T0838 000:696 JLINK_ClrBPEx(BPHandle = 0x0000000D)  returns 0x00 (0000ms, 0231ms total)
T0838 000:696 JLINK_ReadReg(R0)  returns 0x00000000 (0000ms, 0231ms total)
T0838 000:696 JLINK_WriteMem(0x20000164, 0x0400 Bytes, ...) - Data: 04 E0 40 F6 4E 21 19 A0 01 F0 22 FC 20 8A 00 EA ... -- CPU_WriteMem(1024 bytes @ 0x20000164)  returns 0x400 (0003ms, 0234ms total)
T0838 000:699 JLINK_WriteReg(R0, 0x08002400)  returns 0x00 (0000ms, 0234ms total)
T0838 000:699 JLINK_WriteReg(R1, 0x00000400)  returns 0x00 (0000ms, 0234ms total)
T0838 000:699 JLINK_WriteReg(R2, 0x20000164)  returns 0x00 (0000ms, 0234ms total)
T0838 000:699 JLINK_WriteReg(R3, 0x00000000)  returns 0x00 (0000ms, 0234ms total)
T0838 000:699 JLINK_WriteReg(R4, 0x00000000)  returns 0x00 (0000ms, 0234ms total)
T0838 000:699 JLINK_WriteReg(R5, 0x00000000)  returns 0x00 (0000ms, 0234ms total)
T0838 000:699 JLINK_WriteReg(R6, 0x00000000)  returns 0x00 (0000ms, 0234ms total)
T0838 000:699 JLINK_WriteReg(R7, 0x00000000)  returns 0x00 (0000ms, 0234ms total)
T0838 000:699 JLINK_WriteReg(R8, 0x00000000)  returns 0x00 (0000ms, 0234ms total)
T0838 000:699 JLINK_WriteReg(R9, 0x20000160)  returns 0x00 (0000ms, 0234ms total)
T0838 000:699 JLINK_WriteReg(R10, 0x00000000)  returns 0x00 (0000ms, 0234ms total)
T0838 000:699 JLINK_WriteReg(R11, 0x00000000)  returns 0x00 (0000ms, 0234ms total)
T0838 000:699 JLINK_WriteReg(R12, 0x00000000)  returns 0x00 (0000ms, 0234ms total)
T0838 000:699 JLINK_WriteReg(R13 (SP), 0x20001000)  returns 0x00 (0000ms, 0234ms total)
T0838 000:699 JLINK_WriteReg(R14, 0x20000001)  returns 0x00 (0000ms, 0234ms total)
T0838 000:699 JLINK_WriteReg(R15 (PC), 0x200000F4)  returns 0x00 (0000ms, 0234ms total)
T0838 000:699 JLINK_WriteReg(XPSR, 0x01000000)  returns 0x00 (0000ms, 0234ms total)
